"Freq [GHz]","re(S(1,1)) []","im(S(1,1)) []","re(S(2,1)) []","im(S(2,1)) []","re(S(1,2)) []","im(S(1,2)) []","re(S(2,2)) []","im(S(2,2)) []"
33,2.86093474312617E-05,9.43299688883226E-05,0.914393188418312,-0.404827231368589,0.914393188418311,-0.404827231368588,5.06044315546202E-05,8.45921349652563E-05
33.01,2.86696504421498E-05,9.44120343932941E-05,0.914252027369417,-0.405140947935586,0.914252027369416,-0.405140947935584,5.06849892260066E-05,8.46551065443279E-05
33.02,2.87300117764147E-05,9.44941204125517E-05,0.914110835930123,-0.405454500331158,0.914110835930121,-0.405454500331156,5.07655954527083E-05,8.47180964149625E-05
33.03,2.87904314789045E-05,9.45762268384988E-05,0.913969614053348,-0.405767888590276,0.913969614053347,-0.405767888590274,5.08462502039046E-05,8.47811044831437E-05
33.04,2.88509095944701E-05,9.46583535635338E-05,0.913828361692414,-0.406081112748863,0.913828361692412,-0.406081112748862,5.09269534488256E-05,8.4844130654917E-05
33.05,2.89114461679646E-05,9.47405004800495E-05,0.913687078801038,-0.40639417284379,0.913687078801036,-0.406394172843789,5.10077051567511E-05,8.49071748363894E-05
33.06,2.89720412442417E-05,9.48226674804338E-05,0.913545765333336,-0.406707068912862,0.913545765333334,-0.40670706891286,5.10885052970103E-05,8.49702369337298E-05
33.07,2.90326948681557E-05,9.49048544570683E-05,0.913404421243817,-0.407019800994814,0.913404421243816,-0.407019800994813,5.11693538389809E-05,8.50333168531688E-05
33.08,2.90934070845607E-05,9.49870613023297E-05,0.913263046487384,-0.407332369129306,0.913263046487382,-0.407332369129305,5.12502507520886E-05,8.50964145009999E-05
33.09,2.91541779383092E-05,9.50692879085886E-05,0.913121641019325,-0.407644773356912,0.913121641019323,-0.407644773356911,5.13311960058064E-05,8.51595297835781E-05
33.1,2.92150074742521E-05,9.51515341682098E-05,0.912980204795317,-0.407957013719112,0.912980204795316,-0.407957013719111,5.14121895696537E-05,8.52226626073215E-05
33.11,2.92758957372375E-05,9.52337999735522E-05,0.912838737771422,-0.408269090258288,0.912838737771421,-0.408269090258286,5.14932314131966E-05,8.52858128787107E-05
33.12,2.93368427721098E-05,9.53160852169687E-05,0.912697239904083,-0.408581003017713,0.912697239904082,-0.408581003017712,5.15743215060461E-05,8.53489805042893E-05
33.13,2.93978486237095E-05,9.53983897908063E-05,0.912555711150122,-0.408892752041549,0.912555711150121,-0.408892752041548,5.16554598178584E-05,8.54121653906637E-05
33.14,2.94589133368719E-05,9.54807135874055E-05,0.912414151466739,-0.409204337374833,0.912414151466738,-0.409204337374831,5.17366463183336E-05,8.54753674445037E-05
33.15,2.95200369564265E-05,9.55630564991008E-05,0.912272560811508,-0.409515759063474,0.912272560811507,-0.409515759063473,5.18178809772158E-05,8.55385865725423E-05
33.16,2.95812195271965E-05,9.56454184182202E-05,0.912130939142376,-0.409827017154247,0.912130939142374,-0.409827017154246,5.18991637642919E-05,8.56018226815763E-05
33.17,2.96424610939978E-05,9.57277992370855E-05,0.911989286417661,-0.410138111694784,0.911989286417659,-0.410138111694783,5.19804946493911E-05,8.56650756784661E-05
33.18,2.97037617016381E-05,9.58101988480118E-05,0.911847602596046,-0.410449042733564,0.911847602596044,-0.410449042733563,5.20618736023847E-05,8.57283454701362E-05
33.19,2.97651213949168E-05,9.58926171433076E-05,0.911705887636583,-0.410759810319914,0.911705887636582,-0.410759810319913,5.21433005931852E-05,8.57916319635747E-05
33.2,2.98265402186234E-05,9.5975054015275E-05,0.911564141498685,-0.411070414503993,0.911564141498684,-0.411070414503992,5.22247755917455E-05,8.58549350658347E-05
33.21,2.98880182175373E-05,9.60575093562094E-05,0.911422364142128,-0.411380855336792,0.911422364142127,-0.411380855336791,5.23062985680588E-05,8.59182546840332E-05
33.22,2.99495554364272E-05,9.61399830583992E-05,0.911280555527044,-0.411691132870125,0.911280555527043,-0.411691132870123,5.23878694921576E-05,8.5981590725352E-05
33.23,3.00111519200496E-05,9.62224750141261E-05,0.911138715613923,-0.412001247156618,0.911138715613922,-0.412001247156617,5.24694883341135E-05,8.6044943097038E-05
33.24,3.00728077131494E-05,9.63049851156653E-05,0.91099684436361,-0.412311198249713,0.910996844363609,-0.412311198249712,5.25511550640365E-05,8.61083117064026E-05
33.25,3.01345228604576E-05,9.63875132552843E-05,0.910854941737301,-0.412620986203647,0.9108549417373,-0.412620986203646,5.26328696520738E-05,8.61716964608229E-05
33.26,3.01962974066917E-05,9.64700593252442E-05,0.910713007696542,-0.412930611073458,0.910713007696541,-0.412930611073457,5.27146320684105E-05,8.62350972677411E-05
33.27,3.02581313965546E-05,9.65526232177992E-05,0.910571042203226,-0.413240072914973,0.910571042203225,-0.413240072914971,5.2796442283268E-05,8.62985140346652E-05
33.28,3.03200248747337E-05,9.66352048251957E-05,0.910429045219593,-0.413549371784797,0.910429045219592,-0.413549371784796,5.28783002669036E-05,8.63619466691685E-05
33.29,3.03819778859007E-05,9.67178040396738E-05,0.910287016708226,-0.413858507740317,0.910287016708224,-0.413858507740316,5.29602059896105E-05,8.6425395078891E-05
33.3,3.04439904747104E-05,9.68004207534658E-05,0.910144956632047,-0.414167480839687,0.910144956632046,-0.414167480839686,5.30421594217166E-05,8.64888591715383E-05
33.31,3.05060626858001E-05,9.68830548587972E-05,0.910002864954319,-0.414476291141825,0.910002864954318,-0.414476291141824,5.31241605335845E-05,8.65523388548824E-05
33.32,3.0568194563789E-05,9.69657062478859E-05,0.909860741638642,-0.414784938706406,0.909860741638641,-0.414784938706405,5.32062092956101E-05,8.6615834036762E-05
33.33,3.06303861532775E-05,9.70483748129431E-05,0.90971858664895,-0.415093423593855,0.909718586648949,-0.415093423593854,5.32883056782235E-05,8.66793446250826E-05
33.34,3.06926374988463E-05,9.71310604461721E-05,0.909576399949511,-0.415401745865343,0.909576399949509,-0.415401745865342,5.33704496518867E-05,8.67428705278163E-05
33.35,3.0754948645056E-05,9.72137630397689E-05,0.90943418150492,-0.415709905582777,0.909434181504918,-0.415709905582776,5.34526411870946E-05,8.68064116530027E-05
33.36,3.0817319636446E-05,9.72964824859225E-05,0.909291931280104,-0.416017902808798,0.909291931280103,-0.416017902808796,5.35348802543735E-05,8.68699679087484E-05
33.37,3.08797505175343E-05,9.73792186768143E-05,0.909149649240316,-0.416325737606771,0.909149649240314,-0.41632573760677,5.36171668242811E-05,8.6933539203228E-05
33.38,3.09422413328165E-05,9.74619715046184E-05,0.909007335351131,-0.416633410040784,0.909007335351129,-0.416633410040783,5.36995008674058E-05,8.69971254446833E-05
33.39,3.10047921267648E-05,9.75447408615011E-05,0.908864989578449,-0.416940920175635,0.908864989578448,-0.416940920175634,5.37818823543659E-05,8.70607265414243E-05
33.4,3.10674029438281E-05,9.76275266396217E-05,0.908722611888488,-0.417248268076831,0.908722611888487,-0.41724826807683,5.38643112558095E-05,8.71243424018291E-05
33.41,3.11300738284306E-05,9.77103287311319E-05,0.908580202247787,-0.417555453810581,0.908580202247786,-0.41755545381058,5.39467875424139E-05,8.71879729343441E-05
33.42,3.11928048249716E-05,9.77931470281758E-05,0.908437760623199,-0.417862477443791,0.908437760623197,-0.41786247744379,5.40293111848852E-05,8.72516180474845E-05
33.43,3.12555959778244E-05,9.787598142289E-05,0.908295286981891,-0.418169339044054,0.908295286981889,-0.418169339044052,5.41118821539571E-05,8.73152776498337E-05
33.44,3.13184473313358E-05,9.79588318074037E-05,0.908152781291342,-0.418476038679648,0.908152781291341,-0.418476038679647,5.41945004203913E-05,8.73789516500446E-05
33.45,3.13813589298258E-05,9.80416980738389E-05,0.908010243519345,-0.418782576419532,0.908010243519344,-0.418782576419531,5.42771659549768E-05,8.74426399568391E-05
33.46,3.14443308175859E-05,9.81245801143093E-05,0.907867673633997,-0.419088952333332,0.907867673633996,-0.419088952333331,5.43598787285286E-05,8.75063424790083E-05
33.47,3.15073630388799E-05,9.82074778209219E-05,0.907725071603702,-0.419395166491345,0.907725071603701,-0.419395166491343,5.44426387118883E-05,8.7570059125413E-05
33.48,3.15704556379418E-05,9.82903910857759E-05,0.907582437397172,-0.419701218964527,0.907582437397171,-0.419701218964526,5.45254458759232E-05,8.76337898049839E-05
33.49,3.16336086589761E-05,9.8373319800963E-05,0.907439770983415,-0.420007109824491,0.907439770983414,-0.42000710982449,5.46083001915256E-05,8.76975344267217E-05
33.5,3.16968221461566E-05,9.84562638585672E-05,0.907297072331747,-0.420312839143496,0.907297072331745,-0.420312839143495,5.46912016296122E-05,8.7761292899697E-05
33.51,3.17600961436259E-05,9.85392231506654E-05,0.907154341411776,-0.420618406994449,0.907154341411775,-0.420618406994448,5.47741501611244E-05,8.78250651330512E-05
33.52,3.18234306954951E-05,9.8622197569327E-05,0.90701157819341,-0.420923813450894,0.907011578193409,-0.420923813450893,5.48571457570272E-05,8.78888510359963E-05
33.53,3.18868258458423E-05,9.87051870066138E-05,0.906868782646853,-0.421229058587006,0.906868782646852,-0.421229058587005,5.49401883883085E-05,8.7952650517815E-05
33.54,3.19502816387129E-05,9.878819135458E-05,0.906725954742599,-0.421534142477591,0.906725954742597,-0.42153414247759,5.50232780259794E-05,8.80164634878613E-05
33.55,3.20137981181182E-05,9.88712105052729E-05,0.906583094451435,-0.421839065198075,0.906583094451434,-0.421839065198074,5.51064146410729E-05,8.80802898555602E-05
33.56,3.20773753280354E-05,9.8954244350732E-05,0.906440201744436,-0.4221438268245,0.906440201744435,-0.422143826824499,5.51895982046445E-05,8.81441295304086E-05
33.57,3.2141013312406E-05,9.90372927829896E-05,0.906297276592966,-0.422448427433522,0.906297276592965,-0.422448427433521,5.52728286877704E-05,8.82079824219749E-05
33.58,3.22047121151363E-05,9.91203556940707E-05,0.906154318968674,-0.422752867102398,0.906154318968673,-0.422752867102397,5.5356106061548E-05,8.82718484398994E-05
33.59,3.22684717800959E-05,9.92034329759929E-05,0.906011328843492,-0.423057145908992,0.90601132884349,-0.423057145908991,5.54394302970954E-05,8.83357274938949E-05
33.6,3.23322923511174E-05,9.92865245207665E-05,0.905868306189633,-0.423361263931759,0.905868306189632,-0.423361263931758,5.55228013655505E-05,8.83996194937462E-05
33.61,3.23961738719961E-05,9.93696302203948E-05,0.905725250979593,-0.423665221249745,0.905725250979592,-0.423665221249744,5.56062192380708E-05,8.84635243493112E-05
33.62,3.24601163864882E-05,9.94527499668737E-05,0.905582163186144,-0.42396901794258,0.905582163186143,-0.423969017942579,5.56896838858329E-05,8.85274419705202E-05
33.63,3.25241199383117E-05,9.95358836521921E-05,0.905439042782337,-0.424272654090478,0.905439042782335,-0.424272654090477,5.57731952800325E-05,8.85913722673769E-05
33.64,3.25881845711446E-05,9.96190311683316E-05,0.905295889741493,-0.424576129774223,0.905295889741492,-0.424576129774222,5.58567533918829E-05,8.86553151499582E-05
33.65,3.26523103286248E-05,9.97021924072668E-05,0.905152704037212,-0.424879445075171,0.905152704037211,-0.42487944507517,5.59403581926159E-05,8.87192705284145E-05
33.66,3.27164972543493E-05,9.97853672609654E-05,0.905009485643361,-0.425182600075241,0.90500948564336,-0.42518260007524,5.60240096534802E-05,8.87832383129701E-05
33.67,3.27807453918737E-05,9.98685556213881E-05,0.904866234534077,-0.425485594856914,0.904866234534076,-0.425485594856913,5.6107707745742E-05,8.88472184139232E-05
33.68,3.28450547847115E-05,9.99517573804887E-05,0.904722950683768,-0.425788429503224,0.904722950683767,-0.425788429503223,5.61914524406835E-05,8.89112107416464E-05
33.69,3.29094254763333E-05,0.000100034972430214,0.904579634067104,-0.426091104097753,0.904579634067103,-0.426091104097751,5.62752437096034E-05,8.89752152065864E-05
33.7,3.29738575101666E-05,0.000100118200662504,0.904436284659022,-0.426393618724631,0.90443628465902,-0.42639361872463,5.63590815238161E-05,8.90392317192649E-05
33.71,3.30383509295948E-05,0.000100201441969292,0.904292902434719,-0.426695973468525,0.904292902434718,-0.426695973468524,5.6442965854651E-05,8.91032601902786E-05
33.72,3.31029057779568E-05,0.000100284696242504,0.904149487369657,-0.42699816841464,0.904149487369656,-0.426998168414639,5.65268966734529E-05,8.9167300530299E-05
33.73,3.31675220985462E-05,0.000100367963374062,0.904006039439554,-0.427300203648708,0.904006039439552,-0.427300203648707,5.66108739515806E-05,8.92313526500732E-05
33.74,3.32321999346109E-05,0.000100451243255878,0.903862558620386,-0.427602079256989,0.903862558620384,-0.427602079256988,5.66948976604074E-05,8.92954164604243E-05
33.75,3.32969393293523E-05,0.000100534535779859,0.903719044888385,-0.427903795326261,0.903719044888384,-0.42790379532626,5.67789677713198E-05,8.93594918722506E-05
33.76,3.33617403259251E-05,0.000100617840837906,0.90357549822004,-0.42820535194382,0.903575498220039,-0.428205351943819,5.68630842557181E-05,8.9423578796527E-05
33.77,3.34266029674359E-05,0.000100701158321913,0.903431918592089,-0.428506749197473,0.903431918592088,-0.428506749197472,5.69472470850152E-05,8.94876771443046E-05
33.78,3.34915272969433E-05,0.000100784488123768,0.903288305981522,-0.428807987175532,0.903288305981521,-0.428807987175531,5.70314562306364E-05,8.95517868267111E-05
33.79,3.35565133574572E-05,0.000100867830135353,0.90314466036558,-0.429109065966813,0.903144660365579,-0.429109065966812,5.71157116640194E-05,8.9615907754951E-05
33.8,3.36215611919379E-05,0.000100951184248544,0.903000981721749,-0.429409985660627,0.903000981721748,-0.429409985660626,5.72000133566133E-05,8.9680039840306E-05
33.81,3.36866708432958E-05,0.000101034550355211,0.902857270027765,-0.429710746346781,0.902857270027763,-0.42971074634678,5.72843612798789E-05,8.97441829941351E-05
33.82,3.37518423543907E-05,0.000101117928347216,0.902713525261603,-0.430011348115568,0.902713525261603,-0.430011348115567,5.73687554052876E-05,8.98083371278747E-05
33.83,3.38170757680311E-05,0.000101201318116419,0.902569747401488,-0.430311791057764,0.902569747401487,-0.430311791057763,5.74531957043215E-05,8.98725021530391E-05
33.84,3.38823711269738E-05,0.000101284719554671,0.90242593642588,-0.430612075264626,0.902425936425879,-0.430612075264625,5.75376821484729E-05,8.99366779812207E-05
33.85,3.39477284739232E-05,0.000101368132553819,0.902282092313483,-0.430912200827886,0.902282092313482,-0.430912200827885,5.76222147092441E-05,9.00008645240902E-05
33.86,3.40131478515308E-05,0.000101451557005704,0.902138215043236,-0.431212167839745,0.902138215043235,-0.431212167839744,5.77067933581465E-05,9.00650616933969E-05
33.87,3.40786293023944E-05,0.000101534992802161,0.901994304594319,-0.431511976392872,0.901994304594318,-0.431511976392871,5.77914180667011E-05,9.01292694009688E-05
33.88,3.41441728690581E-05,0.000101618439835021,0.901850360946142,-0.431811626580395,0.901850360946141,-0.431811626580394,5.7876088806437E-05,9.0193487558713E-05
33.89,3.42097785940106E-05,0.000101701897996108,0.901706384078353,-0.432111118495901,0.901706384078352,-0.4321111184959,5.79608055488922E-05,9.02577160786157E-05
33.9,3.42754465196859E-05,0.000101785367177242,0.90156237397083,-0.43241045223343,0.901562373970829,-0.432410452233429,5.80455682656124E-05,9.03219548727432E-05
33.91,3.4341176688462E-05,0.000101868847270238,0.901418330603681,-0.432709627887472,0.90141833060368,-0.432709627887471,5.81303769281512E-05,9.03862038532409E-05
33.92,3.44069691426606E-05,0.000101952338166906,0.901274253957246,-0.433008645552959,0.901274253957244,-0.433008645552958,5.82152315080694E-05,9.04504629323347E-05
33.93,3.44728239245462E-05,0.00010203583975905,0.901130144012088,-0.433307505325265,0.901130144012087,-0.433307505325264,5.83001319769346E-05,9.05147320223309E-05
33.94,3.45387410763258E-05,0.00010211935193847,0.900986000749002,-0.4336062073002,0.900986000749,-0.4336062073002,5.83850783063214E-05,9.05790110356159E-05
33.95,3.46047206401484E-05,0.000102202874596963,0.900841824149001,-0.433904751574007,0.900841824149,-0.433904751574006,5.84700704678103E-05,9.06432998846574E-05
33.96,3.46707626581041E-05,0.00010228640762632,0.900697614193326,-0.434203138243354,0.900697614193325,-0.434203138243353,5.85551084329878E-05,9.07075984820038E-05
33.97,3.47368671722242E-05,0.000102369950918326,0.900553370863439,-0.434501367405336,0.900553370863438,-0.434501367405336,5.86401921734464E-05,9.07719067402851E-05
33.98,3.48030342244797E-05,0.000102453504364765,0.90040909414102,-0.434799439157467,0.900409094141019,-0.434799439157466,5.87253216607833E-05,9.08362245722128E-05
33.99,3.48692638567817E-05,0.000102537067857415,0.90026478400797,-0.435097353597675,0.900264784007969,-0.435097353597674,5.88104968666009E-05,9.09005518905802E-05
34,3.49355561109799E-05,0.00010262064128805,0.900120440446406,-0.435395110824301,0.900120440446405,-0.4353951108243,5.88957177625063E-05,9.09648886082627E-05
34.01,3.50019110288629E-05,0.000102704224548442,0.899976063438662,-0.435692710936094,0.899976063438661,-0.435692710936093,5.89809843201107E-05,9.10292346382183E-05
34.02,3.50683286521574E-05,0.000102787817530357,0.899831652967285,-0.435990154032207,0.899831652967283,-0.435990154032206,5.90662965110295E-05,9.10935898934873E-05
34.03,3.51348090225272E-05,0.000102871420125557,0.899687209015036,-0.436287440212191,0.899687209015035,-0.43628744021219,5.91516543068813E-05,9.11579542871931E-05
34.04,3.52013521815732E-05,0.000102955032225804,0.899542731564888,-0.436584569575996,0.899542731564887,-0.436584569575995,5.92370576792886E-05,9.12223277325422E-05
34.05,3.52679581708326E-05,0.000103038653722853,0.899398220600024,-0.43688154222396,0.899398220600023,-0.436881542223959,5.93225065998764E-05,9.12867101428245E-05
34.06,3.53346270317785E-05,0.000103122284508458,0.899253676103835,-0.437178358256813,0.899253676103834,-0.437178358256812,5.94080010402728E-05,9.13511014314137E-05
34.07,3.54013588058193E-05,0.000103205924474369,0.899109098059921,-0.437475017775667,0.89910909805992,-0.437475017775666,5.94935409721079E-05,9.14155015117673E-05
34.08,3.54681535342979E-05,0.000103289573512334,0.898964486452086,-0.437771520882016,0.898964486452085,-0.437771520882015,5.95791263670144E-05,9.14799102974271E-05
34.09,3.55350112584918E-05,0.000103373231514098,0.898819841264342,-0.43806786767773,0.898819841264341,-0.43806786767773,5.96647571966263E-05,9.15443277020194E-05
34.1,3.56019320196117E-05,0.000103456898371402,0.898675162480901,-0.438364058265053,0.8986751624809,-0.438364058265052,5.97504334325793E-05,9.16087536392552E-05
34.11,3.56689158588019E-05,0.000103540573975986,0.898530450086178,-0.438660092746595,0.898530450086177,-0.438660092746594,5.98361550465102E-05,9.16731880229303E-05
34.12,3.57359628171391E-05,0.000103624258219587,0.898385704064791,-0.438955971225336,0.898385704064789,-0.438955971225336,5.9921922010057E-05,9.17376307669263E-05
34.13,3.58030729356323E-05,0.000103707950993942,0.898240924401553,-0.439251693804617,0.898240924401553,-0.439251693804616,6.00077342948579E-05,9.18020817852102E-05
34.14,3.58702462552216E-05,0.000103791652190784,0.89809611108148,-0.439547260588134,0.898096111081479,-0.439547260588133,6.00935918725516E-05,9.18665409918345E-05
34.15,3.59374828167786E-05,0.000103875361701843,0.897951264089782,-0.439842671679941,0.89795126408978,-0.439842671679941,6.01794947147768E-05,9.19310083009379E-05
34.16,3.60047826611053E-05,0.00010395907941885,0.897806383411862,-0.440137927184443,0.897806383411861,-0.440137927184442,6.0265442793172E-05,9.19954836267458E-05
34.17,3.60721458289338E-05,0.000104042805233534,0.897661469033322,-0.44043302720639,0.897661469033321,-0.440433027206389,6.03514360793752E-05,9.20599668835701E-05
34.18,3.61395723609255E-05,0.000104126539037622,0.897516520939954,-0.440727971850878,0.897516520939953,-0.440727971850877,6.04374745450233E-05,9.21244579858093E-05
34.19,3.62070622976708E-05,0.00010421028072284,0.897371539117742,-0.441022761223343,0.897371539117741,-0.441022761223342,6.05235581617526E-05,9.21889568479496E-05
34.2,3.62746156796889E-05,0.000104294030180912,0.89722652355286,-0.441317395429558,0.897226523552859,-0.441317395429557,6.06096869011977E-05,9.22534633845643E-05
