"Freq [GHz]","re(S(1,1)) []","im(S(1,1)) []","re(S(2,1)) []","im(S(2,1)) []","re(S(1,2)) []","im(S(1,2)) []","re(S(2,2)) []","im(S(2,2)) []"
33,-0.396164135823763,-0.284834646357136,0.510242851518148,-0.707122834444002,0.510242851518146,-0.707122834444001,-0.396178960903895,-0.284814010463496
33.01,-0.396132980584438,-0.284676307198239,0.510114207598224,-0.707293062500985,0.510114207598223,-0.707293062500985,-0.396147814696531,-0.284655650649999
33.02,-0.396102076745772,-0.284518027615374,0.509985271609999,-0.707463279376668,0.509985271609997,-0.707463279376668,-0.396116919867454,-0.284497350396183
33.03,-0.396071423450604,-0.284359807731285,0.509856044269783,-0.707633484621642,0.509856044269781,-0.707633484621642,-0.396086275559586,-0.284339109824766
33.04,-0.396041019844639,-0.284201647666843,0.50972652629176,-0.7078036777887,0.509726526291759,-0.7078036777887,-0.396055880918713,-0.284180929056591
33.05,-0.396010865076434,-0.284043547541057,0.509596718387998,-0.707973858432827,0.509596718387996,-0.707973858432826,-0.39602573509347,-0.284022808210644
33.06,-0.395980958297384,-0.283885507471092,0.509466621268453,-0.708144026111189,0.509466621268451,-0.708144026111189,-0.395995837235335,-0.283864747404059
33.07,-0.395951298661717,-0.283727527572275,0.509336235640985,-0.708314180383124,0.509336235640984,-0.708314180383124,-0.395966186498612,-0.283706746752142
33.08,-0.395921885326473,-0.283569607958115,0.509205562211366,-0.708484320810134,0.509205562211364,-0.708484320810134,-0.395936782040426,-0.283548806368373
33.09,-0.395892717451502,-0.283411748740309,0.509074601683285,-0.708654446955871,0.509074601683283,-0.708654446955871,-0.395907623020702,-0.283390926364426
33.1,-0.395863794199447,-0.28325395002876,0.508943354758364,-0.708824558386129,0.508943354758363,-0.708824558386128,-0.395878708602164,-0.283233106850179
33.11,-0.395835114735733,-0.283096211931588,0.508811822136164,-0.708994654668837,0.508811822136162,-0.708994654668837,-0.395850037950316,-0.283075347933725
33.12,-0.395806678228559,-0.282938534555141,0.508680004514194,-0.709164735374047,0.508680004514192,-0.709164735374046,-0.395821610233435,-0.282917649721389
33.13,-0.395778483848883,-0.282780918004009,0.508547902587919,-0.709334800073922,0.508547902587918,-0.709334800073922,-0.395793424622558,-0.282760012317737
33.14,-0.395750530770413,-0.282623362381036,0.508415517050775,-0.709504848342735,0.508415517050774,-0.709504848342734,-0.395765480291471,-0.282602435825587
33.15,-0.395722818169595,-0.282465867787331,0.508282848594172,-0.709674879756847,0.508282848594171,-0.709674879756847,-0.395737776416698,-0.282444920346025
33.16,-0.395695345225603,-0.282308434322282,0.508149897907505,-0.70984489389471,0.508149897907504,-0.709844893894709,-0.395710312177491,-0.282287465978417
33.17,-0.395668111120325,-0.282151062083568,0.508016665678164,-0.710014890336848,0.508016665678162,-0.710014890336848,-0.395683086755815,-0.282130072820417
33.18,-0.395641115038358,-0.281993751167169,0.50788315259154,-0.710184868665856,0.507883152591538,-0.710184868665856,-0.395656099336343,-0.281972740967981
33.19,-0.39561435616699,-0.28183650166738,0.507749359331038,-0.710354828466382,0.507749359331037,-0.710354828466382,-0.395629349106443,-0.281815470515383
33.2,-0.395587833696195,-0.281679313676822,0.507615286578085,-0.710524769325126,0.507615286578083,-0.710524769325126,-0.395602835256162,-0.28165826155522
33.21,-0.395561546818618,-0.281522187286453,0.507480935012133,-0.710694690830826,0.507480935012131,-0.710694690830826,-0.395576556978224,-0.281501114178427
33.22,-0.395535494729567,-0.281365122585582,0.507346305310675,-0.710864592574251,0.507346305310674,-0.71086459257425,-0.395550513468013,-0.281344028474291
33.23,-0.395509676627001,-0.281208119661877,0.507211398149251,-0.711034474148188,0.50721139814925,-0.711034474148188,-0.395524703923564,-0.281187004530459
33.24,-0.395484091711522,-0.281051178601379,0.507076214201455,-0.711204335147441,0.507076214201454,-0.711204335147441,-0.395499127545553,-0.28103004243295
33.25,-0.395458739186359,-0.280894299488516,0.506940754138945,-0.711374175168814,0.506940754138944,-0.711374175168814,-0.395473783537285,-0.280873142266169
33.26,-0.395433618257362,-0.280737482406107,0.506805018631452,-0.711543993811106,0.50680501863145,-0.711543993811105,-0.395448671104688,-0.280716304112913
33.27,-0.395408728132992,-0.280580727435379,0.506669008346784,-0.711713790675102,0.506669008346783,-0.711713790675102,-0.395423789456294,-0.280559528054391
33.28,-0.395384068024306,-0.28042403465598,0.506532723950843,-0.711883565363563,0.506532723950842,-0.711883565363563,-0.395399137803237,-0.280402814170226
33.29,-0.395359637144953,-0.280267404145981,0.506396166107624,-0.71205331748122,0.506396166107622,-0.71205331748122,-0.39537471535924,-0.280246162538471
33.3,-0.395335434711156,-0.280110835981899,0.506259335479228,-0.71222304663476,0.506259335479226,-0.71222304663476,-0.3953505213406,-0.280089573235621
33.31,-0.39531145994171,-0.279954330238697,0.506122232725869,-0.712392752432825,0.506122232725868,-0.712392752432824,-0.395326554966187,-0.279933046336619
33.32,-0.395287712057967,-0.279797886989804,0.505984858505886,-0.712562434485994,0.505984858505884,-0.712562434485994,-0.395302815457425,-0.279776581914873
33.33,-0.395264190283825,-0.279641506307117,0.505847213475741,-0.712732092406784,0.505847213475739,-0.712732092406783,-0.395279302038286,-0.279620180042262
33.34,-0.39524089384572,-0.279485188261022,0.505709298290038,-0.712901725809633,0.505709298290036,-0.712901725809633,-0.39525601393528,-0.27946384078915
33.35,-0.395217821972617,-0.279328932920395,0.505571113601525,-0.713071334310899,0.505571113601523,-0.713071334310899,-0.395232950377444,-0.279307564224394
33.36,-0.395194973895999,-0.279172740352617,0.505432660061102,-0.713240917528848,0.505432660061101,-0.713240917528847,-0.395210110596335,-0.279151350415357
33.37,-0.395172348849854,-0.279016610623587,0.505293938317832,-0.713410475083641,0.505293938317831,-0.713410475083641,-0.395187493826012,-0.278995199427918
33.38,-0.395149946070669,-0.278860543797727,0.505154949018945,-0.713580006597337,0.505154949018943,-0.713580006597337,-0.395165099303036,-0.278839111326479
33.39,-0.395127764797421,-0.278704539937997,0.505015692809847,-0.713749511693874,0.505015692809846,-0.713749511693874,-0.395142926266455,-0.278683086173981
33.4,-0.395105804271562,-0.278548599105902,0.504876170334129,-0.713918989999065,0.504876170334127,-0.713918989999065,-0.395120973957792,-0.278527124031911
33.41,-0.395084063737015,-0.278392721361504,0.504736382233573,-0.714088441140592,0.504736382233572,-0.714088441140592,-0.395099241621042,-0.278371224960314
33.42,-0.39506254244016,-0.278236906763433,0.504596329148161,-0.714257864747993,0.504596329148159,-0.714257864747992,-0.395077728502656,-0.2782153890178
33.43,-0.395041239629825,-0.278081155368894,0.504456011716079,-0.714427260452658,0.504456011716077,-0.714427260452657,-0.395056433851535,-0.278059616261557
33.44,-0.395020154557282,-0.277925467233682,0.504315430573729,-0.714596627887818,0.504315430573728,-0.714596627887818,-0.395035356919018,-0.277903906747361
33.45,-0.394999286476227,-0.277769842412186,0.504174586355735,-0.71476596668854,0.504174586355734,-0.71476596668854,-0.395014496958876,-0.277748260529585
33.46,-0.394978634642782,-0.277614280957404,0.504033479694948,-0.714935276491716,0.504033479694947,-0.714935276491716,-0.394993853227297,-0.277592677661208
33.47,-0.394958198315474,-0.277458782920951,0.503892111222455,-0.715104556936056,0.503892111222454,-0.715104556936056,-0.394973424982881,-0.277437158193828
33.48,-0.394937976755238,-0.277303348353068,0.503750481567587,-0.715273807662083,0.503750481567586,-0.715273807662083,-0.394953211486631,-0.277281702177669
33.49,-0.394917969225396,-0.27714797730263,0.503608591357925,-0.71544302831212,0.503608591357923,-0.71544302831212,-0.39493321200194,-0.27712630966159
33.5,-0.394898174991655,-0.276992669817163,0.503466441219307,-0.715612218530286,0.503466441219306,-0.715612218530286,-0.394913425794584,-0.276970980693099
33.51,-0.394878593322096,-0.276837425942845,0.503324031775836,-0.715781377962485,0.503324031775835,-0.715781377962485,-0.394893852132712,-0.276815715318358
33.52,-0.394859223487163,-0.276682245724521,0.503181363649888,-0.715950506256404,0.503181363649887,-0.715950506256404,-0.394874490286837,-0.276660513582194
33.53,-0.394840064759656,-0.276527129205708,0.503038437462115,-0.716119603061497,0.503038437462113,-0.716119603061497,-0.394855339529828,-0.276505375528111
33.54,-0.39482111641472,-0.276372076428611,0.502895253831455,-0.716288668028987,0.502895253831454,-0.716288668028987,-0.394836399136899,-0.276350301198296
33.55,-0.394802377729838,-0.276217087434124,0.502751813375141,-0.716457700811848,0.502751813375139,-0.716457700811849,-0.3948176683856,-0.276195290633628
33.56,-0.394783847984822,-0.276062162261848,0.502608116708702,-0.716626701064808,0.5026081167087,-0.716626701064808,-0.39479914655581,-0.27604034387369
33.57,-0.394765526461798,-0.275907300950093,0.502464164445974,-0.716795668444331,0.502464164445973,-0.716795668444331,-0.394780832929726,-0.27588546095678
33.58,-0.394747412445208,-0.275752503535891,0.502319957199108,-0.716964602608618,0.502319957199107,-0.716964602608617,-0.394762726791853,-0.275730641919912
33.59,-0.394729505221791,-0.275597770055004,0.502175495578573,-0.717133503217595,0.502175495578572,-0.717133503217595,-0.394744827428999,-0.275575886798834
33.6,-0.394711804080579,-0.275443100541933,0.502030780193162,-0.717302369932906,0.502030780193161,-0.717302369932906,-0.394727134130264,-0.275421195628032
33.61,-0.394694308312887,-0.275288495029928,0.501885811650005,-0.717471202417908,0.501885811650004,-0.717471202417908,-0.394709646187028,-0.27526656844074
33.62,-0.394677017212305,-0.275133953550995,0.501740590554569,-0.717640000337661,0.501740590554568,-0.717640000337661,-0.394692362892947,-0.275112005268952
33.63,-0.394659930074688,-0.274979476135907,0.501595117510667,-0.717808763358922,0.501595117510666,-0.717808763358921,-0.394675283543944,-0.274957506143424
33.64,-0.394643046198149,-0.274825062814212,0.501449393120466,-0.717977491150136,0.501449393120465,-0.717977491150136,-0.394658407438197,-0.27480307109369
33.65,-0.394626364883047,-0.27467071361424,0.501303417984489,-0.718146183381433,0.501303417984489,-0.718146183381433,-0.394641733876131,-0.274648700148066
33.66,-0.394609885431984,-0.274516428563114,0.501157192701629,-0.718314839724614,0.501157192701628,-0.718314839724614,-0.394625262160412,-0.274494393333663
33.67,-0.394593607149791,-0.274362207686759,0.501010717869145,-0.718483459853152,0.501010717869144,-0.718483459853152,-0.394608991595936,-0.274340150676389
33.68,-0.39457752934352,-0.274208051009907,0.500863994082679,-0.718652043442176,0.500863994082678,-0.718652043442176,-0.394592921489822,-0.274185972200964
33.69,-0.394561651322441,-0.274053958556111,0.500717021936254,-0.718820590168473,0.500717021936253,-0.718820590168473,-0.394577051151403,-0.274031857930928
33.7,-0.394545972398025,-0.273899930347748,0.500569802022286,-0.718989099710473,0.500569802022285,-0.718989099710473,-0.394561379892215,-0.273877807888643
33.71,-0.394530491883943,-0.27374596640603,0.500422334931587,-0.719157571748247,0.500422334931586,-0.719157571748246,-0.394545907025994,-0.27372382209531
33.72,-0.394515209096055,-0.273592066751015,0.500274621253372,-0.719326005963498,0.500274621253371,-0.719326005963498,-0.394530631868661,-0.273569900570971
33.73,-0.394500123352399,-0.273438231401609,0.500126661575263,-0.719494402039555,0.500126661575262,-0.719494402039555,-0.394515553738321,-0.273416043334522
33.74,-0.394485233973187,-0.273284460375579,0.499978456483301,-0.719662759661364,0.4999784564833,-0.719662759661363,-0.394500671955248,-0.273262250403716
33.75,-0.394470540280794,-0.273130753689561,0.499830006561945,-0.719831078515484,0.499830006561944,-0.719831078515484,-0.39448598584188,-0.273108521795176
33.76,-0.39445604159975,-0.272977111359065,0.499681312394083,-0.719999358290078,0.499681312394082,-0.719999358290078,-0.394471494722812,-0.272954857524401
33.77,-0.394441737256735,-0.272823533398488,0.499532374561036,-0.720167598674908,0.499532374561036,-0.720167598674908,-0.394457197924783,-0.272801257605774
33.78,-0.394427626580563,-0.272670019821117,0.499383193642565,-0.720335799361324,0.499383193642564,-0.720335799361324,-0.394443094776673,-0.272647722052571
33.79,-0.394413708902185,-0.27251657063914,0.499233770216872,-0.720503960042265,0.499233770216871,-0.720503960042265,-0.394429184609492,-0.272494250876967
33.8,-0.394399983554671,-0.272363185863654,0.499084104860616,-0.720672080412244,0.499084104860615,-0.720672080412244,-0.394415466756375,-0.272340844090048
33.81,-0.394386449873208,-0.272209865504669,0.498934198148908,-0.720840160167347,0.498934198148907,-0.720840160167347,-0.394401940552569,-0.272187501701813
33.82,-0.394373107195088,-0.272056609571123,0.498784050655324,-0.721008199005221,0.498784050655323,-0.721008199005222,-0.394388605335428,-0.272034223721187
33.83,-0.394359954859703,-0.271903418070883,0.498633662951907,-0.721176196625076,0.498633662951906,-0.721176196625076,-0.394375460444407,-0.271881010156025
33.84,-0.394346992208538,-0.271750291010756,0.498483035609174,-0.721344152727668,0.498483035609173,-0.721344152727668,-0.394362505221048,-0.271727861013125
33.85,-0.394334218585157,-0.271597228396495,0.498332169196124,-0.721512067015299,0.498332169196123,-0.721512067015299,-0.39434973900898,-0.271574776298229
33.86,-0.394321633335202,-0.271444230232811,0.498181064280237,-0.721679939191811,0.498181064280236,-0.721679939191811,-0.394337161153903,-0.271421756016034
33.87,-0.394309235806384,-0.271291296523374,0.498029721427487,-0.721847768962574,0.498029721427486,-0.721847768962574,-0.394324771003589,-0.271268800170201
33.88,-0.394297025348469,-0.271138427270824,0.497878141202345,-0.722015556034487,0.497878141202344,-0.722015556034486,-0.394312567907866,-0.27111590876336
33.89,-0.39428500131328,-0.270985622476781,0.497726324167782,-0.722183300115962,0.497726324167781,-0.722183300115962,-0.394300551218613,-0.270963081797119
33.9,-0.39427316305468,-0.270832882141848,0.497574270885278,-0.722351000916928,0.497574270885277,-0.722351000916928,-0.394288720289755,-0.270810319272071
33.91,-0.394261509928572,-0.270680206265618,0.497421981914824,-0.722518658148819,0.497421981914823,-0.722518658148819,-0.394277074477255,-0.2706576211878
33.92,-0.394250041292885,-0.270527594846687,0.497269457814932,-0.722686271524565,0.497269457814931,-0.722686271524564,-0.394265613139099,-0.27050498754289
33.93,-0.394238756507571,-0.270375047882657,0.497116699142637,-0.722853840758592,0.497116699142636,-0.722853840758592,-0.3942543356353,-0.270352418334934
33.94,-0.394227654934596,-0.270222565370143,0.496963706453501,-0.723021365566812,0.4969637064535,-0.723021365566812,-0.394243241327882,-0.270199913560536
33.95,-0.39421673593793,-0.270070147304781,0.496810480301623,-0.723188845666619,0.496810480301622,-0.723188845666619,-0.394232329580874,-0.270047473215323
33.96,-0.394205998883545,-0.269917793681236,0.496657021239642,-0.723356280776877,0.496657021239641,-0.723356280776877,-0.394221599760304,-0.269895097293951
33.97,-0.394195443139402,-0.269765504493209,0.496503329818741,-0.723523670617923,0.49650332981874,-0.723523670617923,-0.394211051234192,-0.269742785790112
33.98,-0.394185068075444,-0.269613279733444,0.496349406588653,-0.723691014911553,0.496349406588652,-0.723691014911553,-0.394200683372542,-0.269590538696538
33.99,-0.394174873063596,-0.269461119393732,0.496195252097667,-0.723858313381019,0.496195252097666,-0.723858313381019,-0.394190495547331,-0.269438356005012
34,-0.394164857477746,-0.269309023464924,0.496040866892633,-0.724025565751023,0.496040866892632,-0.724025565751023,-0.394180487132509,-0.269286237706377
34.01,-0.394155020693747,-0.269156991936932,0.495886251518966,-0.724192771747711,0.495886251518965,-0.724192771747711,-0.394170657503983,-0.269134183790534
34.02,-0.394145362089406,-0.269005024798739,0.495731406520654,-0.724359931098666,0.495731406520653,-0.724359931098666,-0.394161006039618,-0.268982194246459
34.03,-0.394135881044476,-0.268853122038406,0.495576332440258,-0.724527043532902,0.495576332440258,-0.724527043532901,-0.394151532119223,-0.268830269062203
34.04,-0.39412657694065,-0.268701283643077,0.495421029818923,-0.724694108780858,0.495421029818923,-0.724694108780858,-0.394142235124549,-0.268678408224902
34.05,-0.394117449161556,-0.268549509598988,0.495265499196379,-0.724861126574395,0.495265499196378,-0.724861126574395,-0.394133114439278,-0.268526611720783
34.06,-0.394108497092744,-0.268397799891471,0.495109741110945,-0.725028096646785,0.495109741110944,-0.725028096646785,-0.394124169449018,-0.26837487953517
34.07,-0.394099720121685,-0.268246154504963,0.494953756099539,-0.725195018732708,0.494953756099538,-0.725195018732708,-0.394115399541293,-0.268223211652492
34.08,-0.39409111763776,-0.268094573423013,0.494797544697678,-0.725361892568247,0.494797544697678,-0.725361892568247,-0.394106804105541,-0.268071608056288
34.09,-0.394082689032255,-0.267943056628285,0.494641107439487,-0.72552871789088,0.494641107439487,-0.72552871789088,-0.394098382533103,-0.267920068729217
34.1,-0.394074433698351,-0.267791604102569,0.4944844448577,-0.725695494439474,0.494484444857699,-0.725695494439473,-0.394090134217215,-0.267768593653058
34.11,-0.394066351031122,-0.267640215826785,0.494327557483666,-0.725862221954282,0.494327557483666,-0.725862221954281,-0.394082058553006,-0.267617182808725
34.12,-0.394058440427523,-0.267488891780989,0.494170445847357,-0.726028900176933,0.494170445847356,-0.726028900176933,-0.394074154937485,-0.267465836176266
34.13,-0.394050701286387,-0.26733763194438,0.494013110477367,-0.726195528850433,0.494013110477366,-0.726195528850433,-0.39406642276954,-0.267314553734872
34.14,-0.394043133008415,-0.26718643629531,0.493855551900922,-0.72636210771915,0.493855551900922,-0.72636210771915,-0.394058861449924,-0.267163335462888
34.15,-0.394035734996169,-0.267035304811284,0.493697770643882,-0.726528636528816,0.493697770643882,-0.726528636528816,-0.394051470381256,-0.26701218133781
34.16,-0.394028506654071,-0.266884237468969,0.493539767230747,-0.726695115026518,0.493539767230746,-0.726695115026518,-0.394044248968008,-0.266861091336301
34.17,-0.394021447388386,-0.266733234244203,0.493381542184659,-0.726861542960693,0.493381542184658,-0.726861542960692,-0.394037196616502,-0.266710065434189
34.18,-0.394014556607226,-0.266582295111998,0.493223096027411,-0.727027920081121,0.49322309602741,-0.727027920081121,-0.3940303127349,-0.26655910360648
34.19,-0.394007833720535,-0.266431420046547,0.493064429279449,-0.727194246138924,0.493064429279448,-0.727194246138923,-0.3940235967332,-0.266408205827359
34.2,-0.394001278140086,-0.266280609021229,0.492905542459874,-0.727360520886553,0.492905542459873,-0.727360520886553,-0.394017048023229,-0.2662573720702
34.21,-0.393994889279475,-0.266129862008618,0.492746436086452,-0.727526744077789,0.492746436086452,-0.727526744077789,-0.394010666018633,-0.26610660230757
34.22,-0.39398866655411,-0.265979178980487,0.492587110675618,-0.727692915467734,0.492587110675617,-0.727692915467734,-0.394004450134875,-0.265955896511234
34.23,-0.393982609381212,-0.265828559907814,0.492427566742473,-0.727859034812807,0.492427566742472,-0.727859034812807,-0.393998399789225,-0.265805254652164
34.24,-0.3939767171798,-0.265678004760789,0.492267804800797,-0.728025101870738,0.492267804800797,-0.728025101870738,-0.393992514400755,-0.265654676700543
34.25,-0.393970989370689,-0.265527513508819,0.492107825363053,-0.728191116400563,0.492107825363052,-0.728191116400563,-0.393986793390332,-0.265504162625773
34.26,-0.393965425376483,-0.265377086120534,0.491947628940383,-0.728357078162617,0.491947628940382,-0.728357078162617,-0.393981236180612,-0.265353712396478
